
T14C4 000:406 SEGGER J-Link V4.80g Log File (0001ms, 0283ms total)
T14C4 000:406 DLL Compiled: Feb 13 2014 20:50:02 (0001ms, 0283ms total)
T14C4 000:406 Logging started @ 2014-12-12 15:33 (0001ms, 0283ms total)
T14C4 000:407 JLINK_SetWarnOutHandler(...) (0000ms, 0283ms total)
T14C4 000:407 JLINK_OpenEx(...)
Firmware: J-Link ARM V8 compiled Jan 31 2018 18:34:52
Hardware: V8.00
S/N: 20080643
Feature(s): RDI,FlashDL,FlashBP,JFlash,GDBFull  returns O.K. (0268ms, 0551ms total)
T14C4 000:675 JLINK_SetErrorOutHandler(...) (0000ms, 0551ms total)
T14C4 000:675 JLINK_ExecCommand("ProjectFile = "D:\学习\全动电子液晶测试程序\液晶模块配套资料整理\最新模块代码资料制作\3.2寸ILI9341B_6颗灯模块配套资料Rev2.1\STM32综合测试程序3.2寸ILI9341_240X320_FSMC\USER\JLinkSettings.ini"", ...)  returns 0x00 (0008ms, 0559ms total)
T14C4 000:689 JLINK_ExecCommand("Device = STM32F103ZE", ...)Device "STM32F103ZE" selected (512 KB flash, 64 KB RAM).  returns 0x00 (0004ms, 0563ms total)
T14C4 000:693 JLINK_ExecCommand("DisableConnectionTimeout", ...)  returns 0x01 (0000ms, 0563ms total)
T14C4 000:693 JLINK_GetHardwareVersion()  returns 0x13880 (0000ms, 0563ms total)
T14C4 000:693 JLINK_GetDLLVersion()  returns 48007 (0000ms, 0563ms total)
T14C4 000:693 JLINK_GetFirmwareString(...) (0000ms, 0563ms total)
T14C4 000:713 JLINK_GetDLLVersion()  returns 48007 (0000ms, 0563ms total)
T14C4 000:713 JLINK_GetCompileDateTime() (0000ms, 0563ms total)
T14C4 000:716 JLINK_GetFirmwareString(...) (0000ms, 0563ms total)
T14C4 000:719 JLINK_GetHardwareVersion()  returns 0x13880 (0000ms, 0563ms total)
T14C4 000:733 JLINK_TIF_Select(JLINKARM_TIF_SWD)  returns 0x00 (0004ms, 0567ms total)
T14C4 000:737 JLINK_SetSpeed(10000) (0001ms, 0568ms total)
T14C4 000:738 JLINK_GetId() >0x108 TIF>Found SWD-DP with ID 0x1BA01477 >0x0D TIF> >0x28 TIF> >0x0D TIF> >0x28 TIF> >0x0D TIF> >0x21 TIF> >0x0D TIF> >0x28 TIF> >0x0D TIF> >0x28 TIF> >0x0D TIF> >0x28 TIF> >0x0D TIF> >0x21 TIF> >0x0D TIF> >0x21 TIF> >0x0D TIF> >0x28 TIF> >0x0D TIF> >0x21 TIF> >0x0D TIF> >0x21 TIF> >0x0D TIF> >0x28 TIF> >0x0D TIF> >0x28 TIF> >0x108 TIF>Found SWD-DP with ID 0x1BA01477 >0x0D TIF> >0x21 TIF> >0x0D TIF> >0x28 TIF> >0x0D TIF> >0x28 TIF> >0x0D TIF> >0x21 TIF> >0x0D TIF> >0x28 TIF>
 >0x0D TIF> >0x21 TIF> >0x0D TIF> >0x21 TIF> >0x0D TIF> >0x21 TIF> >0x0D TIF> >0x28 TIF> >0x0D TIF> >0x21 TIF> >0x0D TIF> >0x28 TIF> >0x0D TIF> >0x28 TIF> >0x0D TIF> >0x21 TIF> >0x0D TIF> >0x28 TIF> >0x0D TIF> >0x28 TIF> >0x0D TIF> >0x28 TIF> >0x0D TIF> >0x21 TIF> >0x0D TIF> >0x21 TIF> >0x0D TIF> >0x28 TIF> >0x0D TIF> >0x21 TIF> >0x0D TIF> >0x21 TIF>Found Cortex-M3 r1p1, Little endian. >0x0D TIF> >0x28 TIF> -- CPU_WriteMem(4 bytes @ 0xE0002000) -- CPU_ReadMem(4 bytes @ 0xE000EDF0)
 -- CPU_WriteMem(4 bytes @ 0xE000EDF0) -- CPU_ReadMem(4 bytes @ 0xE0002000)FPUnit: 6 code (BP) slots and 2 literal slots -- CPU_ReadMem(4 bytes @ 0xE000EDFC) -- CPU_WriteMem(4 bytes @ 0xE000EDFC) -- CPU_ReadMem(4 bytes @ 0xE0001000) -- CPU_WriteMem(4 bytes @ 0xE0001000) -- CPU_ReadMem(4 bytes @ 0xE00FF010)TPIU fitted. -- CPU_ReadMem(4 bytes @ 0xE00FF014)ETM fitted. -- CPU_ReadMem(4 bytes @ 0xE00FF018) >0x0D TIF> >0x21 TIF>  returns 0x1BA01477 (0115ms, 0683ms total)
T14C4 000:853 JLINK_GetDeviceFamily()  returns 3 (0000ms, 0683ms total)
T14C4 000:857 JLINK_ReadMem (0xE00FFFF0, 0x0010 Bytes, ...) -- CPU is running -- CPU_ReadMem(16 bytes @ 0xE00FFFF0) -- Data:  0D 00 00 00 10 00 00 00 05 00 00 00 B1 00 00 00  returns 0x00 (0002ms, 0685ms total)
T14C4 000:859 JLINK_ReadMem (0xE00FFFD0, 0x0020 Bytes, ...) -- CPU is running -- CPU_ReadMem(32 bytes @ 0xE00FFFD0) -- Data:  00 00 00 00 00 00 00 00 00 00 00 00 00 00 00 00 ...  returns 0x00 (0001ms, 0686ms total)
T14C4 000:860 JLINK_ReadMem (0xE00FF000, 0x0018 Bytes, ...) -- CPU is running -- CPU_ReadMem(24 bytes @ 0xE00FF000) -- Data:  03 F0 F0 FF 03 20 F0 FF 03 30 F0 FF 03 10 F0 FF ...  returns 0x00 (0001ms, 0687ms total)
T14C4 000:861 JLINK_ReadMemU32(0xE000ED00, 0x0001 Items, ...) -- CPU is running -- CPU_ReadMem(4 bytes @ 0xE000ED00) -- Data:  31 C2 1F 41  returns 0x01 (0001ms, 0688ms total)
T14C4 000:862 JLINK_SetResetType(JLINKARM_RESET_TYPE_NORMAL)  returns JLINKARM_RESET_TYPE_NORMAL (0000ms, 0688ms total)
T14C4 000:862 JLINK_Reset() -- CPU_WriteMem(4 bytes @ 0xE0002000) -- CPU_ReadMem(4 bytes @ 0xE000EDFC) -- CPU_WriteMem(4 bytes @ 0xE000EDFC) -- CPU_ReadMem(4 bytes @ 0xE0001000) (0017ms, 0705ms total)
T14C4 000:879 JLINK_Halt()  returns 0x00 (0000ms, 0705ms total)
T14C4 000:879 JLINK_IsHalted()  returns TRUE (0000ms, 0705ms total)
T14C4 000:879 JLINK_ReadMemU32(0xE000EDF0, 0x0001 Items, ...) -- CPU_ReadMem(4 bytes @ 0xE000EDF0) -- Data:  03 00 03 00  returns 0x01 (0001ms, 0706ms total)
T14C4 000:880 JLINK_WriteU32(0xE000EDF0, 0xA05F0003) -- CPU_WriteMem(4 bytes @ 0xE000EDF0)  returns 0x00 (0001ms, 0707ms total)
T14C4 000:881 JLINK_WriteU32(0xE000EDFC, 0x01000000) -- CPU_WriteMem(4 bytes @ 0xE000EDFC)  returns 0x00 (0001ms, 0708ms total)
T14C4 000:895 JLINK_GetHWStatus(...)  returns 0x00 (0002ms, 0710ms total)
T14C4 000:907 JLINK_GetNumBPUnits(Type = 0xFFFFFF00)  returns 0x06 (0000ms, 0710ms total)
T14C4 000:907 JLINK_GetNumBPUnits(Type = 0xF0)  returns 0x2000 (0000ms, 0710ms total)
T14C4 000:907 JLINK_GetNumWPUnits()  returns 0x04 (0000ms, 0710ms total)
T14C4 000:915 JLINK_GetSpeed()  returns 0xFA0 (0000ms, 0710ms total)
T14C4 000:921 JLINK_ReadMemU32(0xE000E004, 0x0001 Items, ...) -- CPU_ReadMem(4 bytes @ 0xE000E004) -- Data:  01 00 00 00  returns 0x01 (0001ms, 0711ms total)
T14C4 000:922 JLINK_ReadMemU32(0xE000E004, 0x0001 Items, ...) -- CPU_ReadMem(4 bytes @ 0xE000E004) -- Data:  01 00 00 00  returns 0x01 (0001ms, 0712ms total)
T14C4 000:923 JLINK_WriteMem(0xE0001000, 0x001C Bytes, ...) -- Data:  01 00 00 00 00 00 00 00 00 00 00 00 00 00 00 00 ... -- CPU_WriteMem(28 bytes @ 0xE0001000)  returns 0x1C (0001ms, 0713ms total)
T14C4 000:924 JLINK_ReadMem (0xE0001000, 0x001C Bytes, ...) -- CPU_ReadMem(28 bytes @ 0xE0001000) -- Data:  01 00 00 40 00 00 00 00 00 00 00 00 00 00 00 00 ...  returns 0x00 (0001ms, 0714ms total)
T14C4 000:925 JLINK_Halt()  returns 0x00 (0000ms, 0714ms total)
T14C4 000:925 JLINK_IsHalted()  returns TRUE (0000ms, 0714ms total)
T14C4 000:928 JLINK_WriteMem(0x20000000, 0x0164 Bytes, ...) -- Data:  00 BE 0A E0 0D 78 2D 06 68 40 08 24 40 00 00 D3 ... -- CPU_WriteMem(356 bytes @ 0x20000000)  returns 0x164 (0003ms, 0717ms total)
T14C4 000:931 JLINK_WriteReg(R0, 0x08000000)  returns 0x00 (0000ms, 0717ms total)
T14C4 000:931 JLINK_WriteReg(R1, 0x007A1200)  returns 0x00 (0000ms, 0717ms total)
T14C4 000:931 JLINK_WriteReg(R2, 0x00000001)  returns 0x00 (0000ms, 0717ms total)
T14C4 000:931 JLINK_WriteReg(R3, 0x00000000)  returns 0x00 (0000ms, 0717ms total)
T14C4 000:931 JLINK_WriteReg(R4, 0x00000000)  returns 0x00 (0000ms, 0717ms total)
T14C4 000:931 JLINK_WriteReg(R5, 0x00000000)  returns 0x00 (0000ms, 0717ms total)
T14C4 000:931 JLINK_WriteReg(R6, 0x00000000)  returns 0x00 (0000ms, 0717ms total)
T14C4 000:931 JLINK_WriteReg(R7, 0x00000000)  returns 0x00 (0000ms, 0717ms total)
T14C4 000:931 JLINK_WriteReg(R8, 0x00000000)  returns 0x00 (0000ms, 0717ms total)
T14C4 000:931 JLINK_WriteReg(R9, 0x20000160)  returns 0x00 (0000ms, 0717ms total)
T14C4 000:931 JLINK_WriteReg(R10, 0x00000000)  returns 0x00 (0000ms, 0717ms total)
T14C4 000:931 JLINK_WriteReg(R11, 0x00000000)  returns 0x00 (0000ms, 0717ms total)
T14C4 000:931 JLINK_WriteReg(R12, 0x00000000)  returns 0x00 (0000ms, 0717ms total)
T14C4 000:931 JLINK_WriteReg(R13 (SP), 0x20000800)  returns 0x00 (0000ms, 0717ms total)
T14C4 000:931 JLINK_WriteReg(R14, 0x20000001)  returns 0x00 (0000ms, 0717ms total)
T14C4 000:931 JLINK_WriteReg(R15 (PC), 0x20000038)  returns 0x00 (0000ms, 0717ms total)
T14C4 000:931 JLINK_WriteReg(XPSR, 0x01000000)  returns 0x00 (0000ms, 0717ms total)
T14C4 000:931 JLINK_WriteReg(MSP, 0x20000800)  returns 0x00 (0000ms, 0717ms total)
T14C4 000:931 JLINK_WriteReg(PSP, 0x20000800)  returns 0x00 (0000ms, 0717ms total)
T14C4 000:931 JLINK_WriteReg(CFBP, 0x00000000)  returns 0x00 (0000ms, 0717ms total)
T14C4 000:931 JLINK_SetBPEx(Addr = 0x20000000, Type = 0xFFFFFFF2) -- CPU_ReadMem(2 bytes @ 0x20000000)  returns 0x00000001 (0002ms, 0719ms total)
T14C4 000:933 JLINK_Go() -- CPU_WriteMem(2 bytes @ 0x20000000) -- CPU_WriteMem(4 bytes @ 0xE0002008) -- CPU_WriteMem(4 bytes @ 0xE000200C) -- CPU_WriteMem(4 bytes @ 0xE0002010) -- CPU_WriteMem(4 bytes @ 0xE0002014) -- CPU_WriteMem(4 bytes @ 0xE0002018) -- CPU_WriteMem(4 bytes @ 0xE000201C) -- CPU_WriteMem(4 bytes @ 0xE0001004) (0010ms, 0729ms total)
T14C4 000:944 JLINK_IsHalted() -- CPU_ReadMem(2 bytes @ 0x20000000)  returns TRUE (0005ms, 0735ms total)
T14C4 000:949 JLINK_ReadReg(R15 (PC))  returns 0x20000000 (0000ms, 0730ms total)
T14C4 000:949 JLINK_ClrBPEx(BPHandle = 0x00000001)  returns 0x00 (0001ms, 0731ms total)
T14C4 000:950 JLINK_ReadReg(R0)  returns 0x00000000 (0000ms, 0731ms total)
T14C4 000:950 JLINK_WriteReg(R0, 0x08000000)  returns 0x00 (0000ms, 0731ms total)
T14C4 000:950 JLINK_WriteReg(R1, 0x00000800)  returns 0x00 (0000ms, 0731ms total)
T14C4 000:950 JLINK_WriteReg(R2, 0x000000FF)  returns 0x00 (0000ms, 0731ms total)
T14C4 000:950 JLINK_WriteReg(R3, 0x00000000)  returns 0x00 (0000ms, 0731ms total)
T14C4 000:950 JLINK_WriteReg(R4, 0x00000000)  returns 0x00 (0000ms, 0731ms total)
T14C4 000:950 JLINK_WriteReg(R5, 0x00000000)  returns 0x00 (0000ms, 0731ms total)
T14C4 000:950 JLINK_WriteReg(R6, 0x00000000)  returns 0x00 (0000ms, 0731ms total)
T14C4 000:950 JLINK_WriteReg(R7, 0x00000000)  returns 0x00 (0000ms, 0731ms total)
T14C4 000:950 JLINK_WriteReg(R8, 0x00000000)  returns 0x00 (0000ms, 0731ms total)
T14C4 000:950 JLINK_WriteReg(R9, 0x20000160)  returns 0x00 (0000ms, 0731ms total)
T14C4 000:950 JLINK_WriteReg(R10, 0x00000000)  returns 0x00 (0000ms, 0731ms total)
T14C4 000:950 JLINK_WriteReg(R11, 0x00000000)  returns 0x00 (0000ms, 0731ms total)
T14C4 000:950 JLINK_WriteReg(R12, 0x00000000)  returns 0x00 (0000ms, 0731ms total)
T14C4 000:950 JLINK_WriteReg(R13 (SP), 0x20000800)  returns 0x00 (0000ms, 0731ms total)
T14C4 000:950 JLINK_WriteReg(R14, 0x20000001)  returns 0x00 (0000ms, 0731ms total)
T14C4 000:950 JLINK_WriteReg(R15 (PC), 0x20000020)  returns 0x00 (0000ms, 0731ms total)
T14C4 000:950 JLINK_WriteReg(XPSR, 0x01000000)  returns 0x00 (0000ms, 0731ms total)
T14C4 000:950 JLINK_WriteReg(MSP, 0x20000800)  returns 0x00 (0000ms, 0731ms total)
T14C4 000:950 JLINK_WriteReg(PSP, 0x20000800)  returns 0x00 (0000ms, 0731ms total)
T14C4 000:950 JLINK_WriteReg(CFBP, 0x00000000)  returns 0x00 (0000ms, 0731ms total)
T14C4 000:950 JLINK_SetBPEx(Addr = 0x20000000, Type = 0xFFFFFFF2)  returns 0x00000002 (0000ms, 0731ms total)
T14C4 000:950 JLINK_Go() (0003ms, 0734ms total)
T14C4 000:953 JLINK_IsHalted() -- CPU_ReadMem(2 bytes @ 0x20000000)  returns TRUE (0006ms, 0740ms total)
T14C4 000:959 JLINK_ReadReg(R15 (PC))  returns 0x20000000 (0000ms, 0734ms total)
T14C4 000:959 JLINK_ClrBPEx(BPHandle = 0x00000002)  returns 0x00 (0000ms, 0734ms total)
T14C4 000:959 JLINK_ReadReg(R0)  returns 0x00000001 (0000ms, 0734ms total)
T14C4 000:959 JLINK_WriteReg(R0, 0x08000000)  returns 0x00 (0000ms, 0734ms total)
T14C4 000:959 JLINK_WriteReg(R1, 0x00000800)  returns 0x00 (0000ms, 0734ms total)
T14C4 000:959 JLINK_WriteReg(R2, 0x000000FF)  returns 0x00 (0000ms, 0734ms total)
T14C4 000:959 JLINK_WriteReg(R3, 0x00000000)  returns 0x00 (0000ms, 0734ms total)
T14C4 000:959 JLINK_WriteReg(R4, 0x00000000)  returns 0x00 (0000ms, 0734ms total)
T14C4 000:959 JLINK_WriteReg(R5, 0x00000000)  returns 0x00 (0000ms, 0734ms total)
T14C4 000:959 JLINK_WriteReg(R6, 0x00000000)  returns 0x00 (0000ms, 0734ms total)
T14C4 000:959 JLINK_WriteReg(R7, 0x00000000)  returns 0x00 (0000ms, 0734ms total)
T14C4 000:959 JLINK_WriteReg(R8, 0x00000000)  returns 0x00 (0000ms, 0734ms total)
T14C4 000:959 JLINK_WriteReg(R9, 0x20000160)  returns 0x00 (0000ms, 0734ms total)
T14C4 000:959 JLINK_WriteReg(R10, 0x00000000)  returns 0x00 (0000ms, 0734ms total)
T14C4 000:959 JLINK_WriteReg(R11, 0x00000000)  returns 0x00 (0000ms, 0734ms total)
T14C4 000:959 JLINK_WriteReg(R12, 0x00000000)  returns 0x00 (0000ms, 0734ms total)
T14C4 000:959 JLINK_WriteReg(R13 (SP), 0x20000800)  returns 0x00 (0000ms, 0734ms total)
T14C4 000:959 JLINK_WriteReg(R14, 0x20000001)  returns 0x00 (0000ms, 0734ms total)
T14C4 000:959 JLINK_WriteReg(R15 (PC), 0x200000B6)  returns 0x00 (0000ms, 0734ms total)
T14C4 000:959 JLINK_WriteReg(XPSR, 0x01000000)  returns 0x00 (0000ms, 0734ms total)
T14C4 000:959 JLINK_WriteReg(MSP, 0x20000800)  returns 0x00 (0000ms, 0734ms total)
T14C4 000:959 JLINK_WriteReg(PSP, 0x20000800)  returns 0x00 (0000ms, 0734ms total)
T14C4 000:959 JLINK_WriteReg(CFBP, 0x00000000)  returns 0x00 (0000ms, 0734ms total)
T14C4 000:959 JLINK_SetBPEx(Addr = 0x20000000, Type = 0xFFFFFFF2)  returns 0x00000003 (0000ms, 0734ms total)
T14C4 000:959 JLINK_Go() (0003ms, 0737ms total)
T14C4 000:962 JLINK_IsHalted()  returns FALSE (0001ms, 0738ms total)
T14C4 001:019 JLINK_IsHalted() -- CPU_ReadMem(2 bytes @ 0x20000000)  returns TRUE (0007ms, 0744ms total)
T14C4 001:026 JLINK_ReadReg(R15 (PC))  returns 0x20000000 (0000ms, 0737ms total)
T14C4 001:026 JLINK_ClrBPEx(BPHandle = 0x00000003)  returns 0x00 (0000ms, 0737ms total)
T14C4 001:026 JLINK_ReadReg(R0)  returns 0x00000000 (0000ms, 0737ms total)
T14C4 001:027 JLINK_WriteReg(R0, 0x08000800)  returns 0x00 (0000ms, 0737ms total)
T14C4 001:027 JLINK_WriteReg(R1, 0x00000800)  returns 0x00 (0000ms, 0737ms total)
T14C4 001:027 JLINK_WriteReg(R2, 0x000000FF)  returns 0x00 (0000ms, 0737ms total)
T14C4 001:027 JLINK_WriteReg(R3, 0x00000000)  returns 0x00 (0000ms, 0737ms total)
T14C4 001:027 JLINK_WriteReg(R4, 0x00000000)  returns 0x00 (0000ms, 0737ms total)
T14C4 001:027 JLINK_WriteReg(R5, 0x00000000)  returns 0x00 (0000ms, 0737ms total)
T14C4 001:027 JLINK_WriteReg(R6, 0x00000000)  returns 0x00 (0000ms, 0737ms total)
T14C4 001:027 JLINK_WriteReg(R7, 0x00000000)  returns 0x00 (0000ms, 0737ms total)
T14C4 001:027 JLINK_WriteReg(R8, 0x00000000)  returns 0x00 (0000ms, 0737ms total)
T14C4 001:027 JLINK_WriteReg(R9, 0x20000160)  returns 0x00 (0000ms, 0737ms total)
T14C4 001:027 JLINK_WriteReg(R10, 0x00000000)  returns 0x00 (0000ms, 0737ms total)
T14C4 001:027 JLINK_WriteReg(R11, 0x00000000)  returns 0x00 (0000ms, 0737ms total)
T14C4 001:027 JLINK_WriteReg(R12, 0x00000000)  returns 0x00 (0000ms, 0737ms total)
T14C4 001:027 JLINK_WriteReg(R13 (SP), 0x20000800)  returns 0x00 (0000ms, 0737ms total)
T14C4 001:027 JLINK_WriteReg(R14, 0x20000001)  returns 0x00 (0000ms, 0737ms total)
T14C4 001:027 JLINK_WriteReg(R15 (PC), 0x20000020)  returns 0x00 (0000ms, 0737ms total)
T14C4 001:027 JLINK_WriteReg(XPSR, 0x01000000)  returns 0x00 (0000ms, 0737ms total)
T14C4 001:027 JLINK_WriteReg(MSP, 0x20000800)  returns 0x00 (0000ms, 0737ms total)
T14C4 001:027 JLINK_WriteReg(PSP, 0x20000800)  returns 0x00 (0000ms, 0737ms total)
T14C4 001:027 JLINK_WriteReg(CFBP, 0x00000000)  returns 0x00 (0000ms, 0737ms total)
T14C4 001:027 JLINK_SetBPEx(Addr = 0x20000000, Type = 0xFFFFFFF2)  returns 0x00000004 (0000ms, 0737ms total)
T14C4 001:027 JLINK_Go() (0002ms, 0739ms total)
T14C4 001:029 JLINK_IsHalted() -- CPU_ReadMem(2 bytes @ 0x20000000)  returns TRUE (0006ms, 0745ms total)
T14C4 001:035 JLINK_ReadReg(R15 (PC))  returns 0x20000000 (0000ms, 0739ms total)
T14C4 001:035 JLINK_ClrBPEx(BPHandle = 0x00000004)  returns 0x00 (0000ms, 0739ms total)
T14C4 001:035 JLINK_ReadReg(R0)  returns 0x00000001 (0000ms, 0739ms total)
T14C4 001:035 JLINK_WriteReg(R0, 0x08000800)  returns 0x00 (0000ms, 0739ms total)
T14C4 001:035 JLINK_WriteReg(R1, 0x00000800)  returns 0x00 (0000ms, 0739ms total)
T14C4 001:035 JLINK_WriteReg(R2, 0x000000FF)  returns 0x00 (0000ms, 0739ms total)
T14C4 001:035 JLINK_WriteReg(R3, 0x00000000)  returns 0x00 (0000ms, 0739ms total)
T14C4 001:035 JLINK_WriteReg(R4, 0x00000000)  returns 0x00 (0000ms, 0739ms total)
T14C4 001:035 JLINK_WriteReg(R5, 0x00000000)  returns 0x00 (0000ms, 0739ms total)
T14C4 001:035 JLINK_WriteReg(R6, 0x00000000)  returns 0x00 (0000ms, 0739ms total)
T14C4 001:035 JLINK_WriteReg(R7, 0x00000000)  returns 0x00 (0001ms, 0740ms total)
T14C4 001:036 JLINK_WriteReg(R8, 0x00000000)  returns 0x00 (0000ms, 0740ms total)
T14C4 001:036 JLINK_WriteReg(R9, 0x20000160)  returns 0x00 (0000ms, 0740ms total)
T14C4 001:036 JLINK_WriteReg(R10, 0x00000000)  returns 0x00 (0000ms, 0740ms total)
T14C4 001:036 JLINK_WriteReg(R11, 0x00000000)  returns 0x00 (0000ms, 0740ms total)
T14C4 001:036 JLINK_WriteReg(R12, 0x00000000)  returns 0x00 (0000ms, 0740ms total)
T14C4 001:036 JLINK_WriteReg(R13 (SP), 0x20000800)  returns 0x00 (0000ms, 0740ms total)
T14C4 001:036 JLINK_WriteReg(R14, 0x20000001)  returns 0x00 (0000ms, 0740ms total)
T14C4 001:036 JLINK_WriteReg(R15 (PC), 0x200000B6)  returns 0x00 (0000ms, 0740ms total)
T14C4 001:036 JLINK_WriteReg(XPSR, 0x01000000)  returns 0x00 (0000ms, 0740ms total)
T14C4 001:036 JLINK_WriteReg(MSP, 0x20000800)  returns 0x00 (0000ms, 0740ms total)
T14C4 001:036 JLINK_WriteReg(PSP, 0x20000800)  returns 0x00 (0000ms, 0740ms total)
T14C4 001:036 JLINK_WriteReg(CFBP, 0x00000000)  returns 0x00 (0000ms, 0740ms total)
T14C4 001:036 JLINK_SetBPEx(Addr = 0x20000000, Type = 0xFFFFFFF2)  returns 0x00000005 (0000ms, 0740ms total)
T14C4 001:036 JLINK_Go() (0002ms, 0742ms total)
T14C4 001:038 JLINK_IsHalted()  returns FALSE (0001ms, 0743ms total)
T14C4 001:040 JLINK_IsHalted()  returns FALSE (0000ms, 0742ms total)
T14C4 001:047 JLINK_IsHalted()  returns FALSE (0001ms, 0743ms total)
T14C4 001:049 JLINK_IsHalted()  returns FALSE (0001ms, 0743ms total)
T14C4 001:062 JLINK_IsHalted() -- CPU_ReadMem(2 bytes @ 0x20000000)  returns TRUE (0006ms, 0748ms total)
T14C4 001:068 JLINK_ReadReg(R15 (PC))  returns 0x20000000 (0000ms, 0742ms total)
T14C4 001:068 JLINK_ClrBPEx(BPHandle = 0x00000005)  returns 0x00 (0000ms, 0742ms total)
T14C4 001:068 JLINK_ReadReg(R0)  returns 0x00000000 (0000ms, 0742ms total)
T14C4 001:068 JLINK_WriteReg(R0, 0x08001000)  returns 0x00 (0000ms, 0742ms total)
T14C4 001:068 JLINK_WriteReg(R1, 0x00000800)  returns 0x00 (0000ms, 0742ms total)
T14C4 001:068 JLINK_WriteReg(R2, 0x000000FF)  returns 0x00 (0000ms, 0742ms total)
T14C4 001:068 JLINK_WriteReg(R3, 0x00000000)  returns 0x00 (0000ms, 0742ms total)
T14C4 001:068 JLINK_WriteReg(R4, 0x00000000)  returns 0x00 (0000ms, 0742ms total)
T14C4 001:068 JLINK_WriteReg(R5, 0x00000000)  returns 0x00 (0000ms, 0742ms total)
T14C4 001:068 JLINK_WriteReg(R6, 0x00000000)  returns 0x00 (0000ms, 0742ms total)
T14C4 001:068 JLINK_WriteReg(R7, 0x00000000)  returns 0x00 (0000ms, 0742ms total)
T14C4 001:068 JLINK_WriteReg(R8, 0x00000000)  returns 0x00 (0000ms, 0742ms total)
T14C4 001:068 JLINK_WriteReg(R9, 0x20000160)  returns 0x00 (0000ms, 0742ms total)
T14C4 001:068 JLINK_WriteReg(R10, 0x00000000)  returns 0x00 (0000ms, 0742ms total)
T14C4 001:068 JLINK_WriteReg(R11, 0x00000000)  returns 0x00 (0000ms, 0742ms total)
T14C4 001:068 JLINK_WriteReg(R12, 0x00000000)  returns 0x00 (0001ms, 0743ms total)
T14C4 001:069 JLINK_WriteReg(R13 (SP), 0x20000800)  returns 0x00 (0000ms, 0743ms total)
T14C4 001:069 JLINK_WriteReg(R14, 0x20000001)  returns 0x00 (0000ms, 0743ms total)
T14C4 001:069 JLINK_WriteReg(R15 (PC), 0x20000020)  returns 0x00 (0000ms, 0743ms total)
T14C4 001:069 JLINK_WriteReg(XPSR, 0x01000000)  returns 0x00 (0000ms, 0743ms total)
T14C4 001:069 JLINK_WriteReg(MSP, 0x20000800)  returns 0x00 (0000ms, 0743ms total)
T14C4 001:069 JLINK_WriteReg(PSP, 0x20000800)  returns 0x00 (0000ms, 0743ms total)
T14C4 001:069 JLINK_WriteReg(CFBP, 0x00000000)  returns 0x00 (0000ms, 0743ms total)
T14C4 001:069 JLINK_SetBPEx(Addr = 0x20000000, Type = 0xFFFFFFF2)  returns 0x00000006 (0000ms, 0743ms total)
T14C4 001:069 JLINK_Go() (0002ms, 0745ms total)
T14C4 001:071 JLINK_IsHalted() -- CPU_ReadMem(2 bytes @ 0x20000000)  returns TRUE (0006ms, 0751ms total)
T14C4 001:077 JLINK_ReadReg(R15 (PC))  returns 0x20000000 (0000ms, 0745ms total)
T14C4 001:077 JLINK_ClrBPEx(BPHandle = 0x00000006)  returns 0x00 (0000ms, 0745ms total)
T14C4 001:077 JLINK_ReadReg(R0)  returns 0x00000001 (0000ms, 0745ms total)
T14C4 001:077 JLINK_WriteReg(R0, 0x08001000)  returns 0x00 (0000ms, 0745ms total)
T14C4 001:077 JLINK_WriteReg(R1, 0x00000800)  returns 0x00 (0000ms, 0745ms total)
T14C4 001:077 JLINK_WriteReg(R2, 0x000000FF)  returns 0x00 (0000ms, 0745ms total)
T14C4 001:077 JLINK_WriteReg(R3, 0x00000000)  returns 0x00 (0000ms, 0745ms total)
T14C4 001:077 JLINK_WriteReg(R4, 0x00000000)  returns 0x00 (0000ms, 0745ms total)
T14C4 001:077 JLINK_WriteReg(R5, 0x00000000)  returns 0x00 (0000ms, 0745ms total)
T14C4 001:077 JLINK_WriteReg(R6, 0x00000000)  returns 0x00 (0000ms, 0745ms total)
T14C4 001:077 JLINK_WriteReg(R7, 0x00000000)  returns 0x00 (0000ms, 0745ms total)
T14C4 001:077 JLINK_WriteReg(R8, 0x00000000)  returns 0x00 (0000ms, 0745ms total)
T14C4 001:077 JLINK_WriteReg(R9, 0x20000160)  returns 0x00 (0000ms, 0745ms total)
T14C4 001:077 JLINK_WriteReg(R10, 0x00000000)  returns 0x00 (0000ms, 0745ms total)
T14C4 001:077 JLINK_WriteReg(R11, 0x00000000)  returns 0x00 (0000ms, 0745ms total)
T14C4 001:077 JLINK_WriteReg(R12, 0x00000000)  returns 0x00 (0000ms, 0745ms total)
T14C4 001:077 JLINK_WriteReg(R13 (SP), 0x20000800)  returns 0x00 (0000ms, 0745ms total)
T14C4 001:077 JLINK_WriteReg(R14, 0x20000001)  returns 0x00 (0000ms, 0745ms total)
T14C4 001:077 JLINK_WriteReg(R15 (PC), 0x200000B6)  returns 0x00 (0000ms, 0745ms total)
T14C4 001:077 JLINK_WriteReg(XPSR, 0x01000000)  returns 0x00 (0000ms, 0745ms total)
T14C4 001:077 JLINK_WriteReg(MSP, 0x20000800)  returns 0x00 (0000ms, 0745ms total)
T14C4 001:078 JLINK_WriteReg(PSP, 0x20000800)  returns 0x00 (0000ms, 0745ms total)
T14C4 001:078 JLINK_WriteReg(CFBP, 0x00000000)  returns 0x00 (0000ms, 0745ms total)
T14C4 001:078 JLINK_SetBPEx(Addr = 0x20000000, Type = 0xFFFFFFF2)  returns 0x00000007 (0000ms, 0745ms total)
T14C4 001:078 JLINK_Go() (0002ms, 0747ms total)
T14C4 001:080 JLINK_IsHalted()  returns FALSE (0001ms, 0748ms total)
T14C4 001:086 JLINK_IsHalted()  returns FALSE (0001ms, 0748ms total)
T14C4 001:088 JLINK_IsHalted()  returns FALSE (0001ms, 0748ms total)
T14C4 001:090 JLINK_IsHalted()  returns FALSE (0001ms, 0748ms total)
T14C4 001:092 JLINK_IsHalted()  returns FALSE (0001ms, 0748ms total)
T14C4 001:094 JLINK_IsHalted()  returns FALSE (0001ms, 0748ms total)
T14C4 001:096 JLINK_IsHalted()  returns FALSE (0001ms, 0748ms total)
T14C4 001:098 JLINK_IsHalted()  returns FALSE (0001ms, 0748ms total)
T14C4 001:100 JLINK_IsHalted()  returns FALSE (0001ms, 0748ms total)
T14C4 001:113 JLINK_IsHalted() -- CPU_ReadMem(2 bytes @ 0x20000000)  returns TRUE (0006ms, 0753ms total)
T14C4 001:119 JLINK_ReadReg(R15 (PC))  returns 0x20000000 (0000ms, 0747ms total)
T14C4 001:119 JLINK_ClrBPEx(BPHandle = 0x00000007)  returns 0x00 (0000ms, 0747ms total)
T14C4 001:119 JLINK_ReadReg(R0)  returns 0x00000000 (0000ms, 0747ms total)
T14C4 001:120 JLINK_WriteReg(R0, 0x08001800)  returns 0x00 (0000ms, 0747ms total)
T14C4 001:120 JLINK_WriteReg(R1, 0x00000800)  returns 0x00 (0000ms, 0747ms total)
T14C4 001:120 JLINK_WriteReg(R2, 0x000000FF)  returns 0x00 (0000ms, 0747ms total)
T14C4 001:120 JLINK_WriteReg(R3, 0x00000000)  returns 0x00 (0000ms, 0747ms total)
T14C4 001:120 JLINK_WriteReg(R4, 0x00000000)  returns 0x00 (0000ms, 0747ms total)
T14C4 001:120 JLINK_WriteReg(R5, 0x00000000)  returns 0x00 (0000ms, 0747ms total)
T14C4 001:120 JLINK_WriteReg(R6, 0x00000000)  returns 0x00 (0000ms, 0747ms total)
T14C4 001:120 JLINK_WriteReg(R7, 0x00000000)  returns 0x00 (0000ms, 0747ms total)
T14C4 001:120 JLINK_WriteReg(R8, 0x00000000)  returns 0x00 (0000ms, 0747ms total)
T14C4 001:120 JLINK_WriteReg(R9, 0x20000160)  returns 0x00 (0000ms, 0747ms total)
T14C4 001:120 JLINK_WriteReg(R10, 0x00000000)  returns 0x00 (0000ms, 0747ms total)
T14C4 001:120 JLINK_WriteReg(R11, 0x00000000)  returns 0x00 (0000ms, 0747ms total)
T14C4 001:120 JLINK_WriteReg(R12, 0x00000000)  returns 0x00 (0000ms, 0747ms total)
T14C4 001:120 JLINK_WriteReg(R13 (SP), 0x20000800)  returns 0x00 (0000ms, 0747ms total)
T14C4 001:120 JLINK_WriteReg(R14, 0x20000001)  returns 0x00 (0000ms, 0747ms total)
T14C4 001:120 JLINK_WriteReg(R15 (PC), 0x20000020)  returns 0x00 (0000ms, 0747ms total)
T14C4 001:120 JLINK_WriteReg(XPSR, 0x01000000)  returns 0x00 (0000ms, 0747ms total)
T14C4 001:120 JLINK_WriteReg(MSP, 0x20000800)  returns 0x00 (0000ms, 0747ms total)
T14C4 001:120 JLINK_WriteReg(PSP, 0x20000800)  returns 0x00 (0000ms, 0747ms total)
T14C4 001:120 JLINK_WriteReg(CFBP, 0x00000000)  returns 0x00 (0000ms, 0747ms total)
T14C4 001:120 JLINK_SetBPEx(Addr = 0x20000000, Type = 0xFFFFFFF2)  returns 0x00000008 (0000ms, 0747ms total)
T14C4 001:120 JLINK_Go() (0003ms, 0750ms total)
T14C4 001:123 JLINK_IsHalted() -- CPU_ReadMem(2 bytes @ 0x20000000)  returns TRUE (0006ms, 0756ms total)
T14C4 001:129 JLINK_ReadReg(R15 (PC))  returns 0x20000000 (0000ms, 0750ms total)
T14C4 001:129 JLINK_ClrBPEx(BPHandle = 0x00000008)  returns 0x00 (0000ms, 0750ms total)
T14C4 001:129 JLINK_ReadReg(R0)  returns 0x00000001 (0000ms, 0750ms total)
T14C4 001:129 JLINK_WriteReg(R0, 0x08001800)  returns 0x00 (0000ms, 0750ms total)
T14C4 001:129 JLINK_WriteReg(R1, 0x00000800)  returns 0x00 (0000ms, 0750ms total)
T14C4 001:129 JLINK_WriteReg(R2, 0x000000FF)  returns 0x00 (0000ms, 0750ms total)
T14C4 001:129 JLINK_WriteReg(R3, 0x00000000)  returns 0x00 (0000ms, 0750ms total)
T14C4 001:129 JLINK_WriteReg(R4, 0x00000000)  returns 0x00 (0000ms, 0750ms total)
T14C4 001:129 JLINK_WriteReg(R5, 0x00000000)  returns 0x00 (0000ms, 0750ms total)
T14C4 001:129 JLINK_WriteReg(R6, 0x00000000)  returns 0x00 (0000ms, 0750ms total)
T14C4 001:129 JLINK_WriteReg(R7, 0x00000000)  returns 0x00 (0000ms, 0750ms total)
T14C4 001:129 JLINK_WriteReg(R8, 0x00000000)  returns 0x00 (0000ms, 0750ms total)
T14C4 001:129 JLINK_WriteReg(R9, 0x20000160)  returns 0x00 (0000ms, 0750ms total)
T14C4 001:129 JLINK_WriteReg(R10, 0x00000000)  returns 0x00 (0000ms, 0750ms total)
T14C4 001:129 JLINK_WriteReg(R11, 0x00000000)  returns 0x00 (0000ms, 0750ms total)
T14C4 001:129 JLINK_WriteReg(R12, 0x00000000)  returns 0x00 (0000ms, 0750ms total)
T14C4 001:129 JLINK_WriteReg(R13 (SP), 0x20000800)  returns 0x00 (0000ms, 0750ms total)
T14C4 001:129 JLINK_WriteReg(R14, 0x20000001)  returns 0x00 (0000ms, 0750ms total)
T14C4 001:129 JLINK_WriteReg(R15 (PC), 0x200000B6)  returns 0x00 (0000ms, 0750ms total)
T14C4 001:129 JLINK_WriteReg(XPSR, 0x01000000)  returns 0x00 (0000ms, 0750ms total)
T14C4 001:129 JLINK_WriteReg(MSP, 0x20000800)  returns 0x00 (0000ms, 0750ms total)
T14C4 001:129 JLINK_WriteReg(PSP, 0x20000800)  returns 0x00 (0000ms, 0750ms total)
T14C4 001:129 JLINK_WriteReg(CFBP, 0x00000000)  returns 0x00 (0000ms, 0750ms total)
T14C4 001:129 JLINK_SetBPEx(Addr = 0x20000000, Type = 0xFFFFFFF2)  returns 0x00000009 (0000ms, 0750ms total)
T14C4 001:129 JLINK_Go() (0003ms, 0753ms total)
T14C4 001:132 JLINK_IsHalted()  returns FALSE (0001ms, 0754ms total)
T14C4 001:138 JLINK_IsHalted()  returns FALSE (0001ms, 0754ms total)
T14C4 001:140 JLINK_IsHalted()  returns FALSE (0001ms, 0754ms total)
T14C4 001:142 JLINK_IsHalted()  returns FALSE (0001ms, 0754ms total)
T14C4 001:144 JLINK_IsHalted()  returns FALSE (0001ms, 0754ms total)
T14C4 001:146 JLINK_IsHalted()  returns FALSE (0001ms, 0754ms total)
T14C4 001:148 JLINK_IsHalted()  returns FALSE (0001ms, 0754ms total)
T14C4 001:157 JLINK_IsHalted() -- CPU_ReadMem(2 bytes @ 0x20000000)  returns TRUE (0006ms, 0759ms total)
T14C4 001:163 JLINK_ReadReg(R15 (PC))  returns 0x20000000 (0000ms, 0753ms total)
T14C4 001:163 JLINK_ClrBPEx(BPHandle = 0x00000009)  returns 0x00 (0000ms, 0753ms total)
T14C4 001:163 JLINK_ReadReg(R0)  returns 0x00000000 (0000ms, 0753ms total)
T14C4 001:163 JLINK_WriteReg(R0, 0x00000001)  returns 0x00 (0001ms, 0754ms total)
T14C4 001:164 JLINK_WriteReg(R1, 0x00000800)  returns 0x00 (0000ms, 0754ms total)
T14C4 001:164 JLINK_WriteReg(R2, 0x000000FF)  returns 0x00 (0000ms, 0754ms total)
T14C4 001:164 JLINK_WriteReg(R3, 0x00000000)  returns 0x00 (0000ms, 0754ms total)
T14C4 001:164 JLINK_WriteReg(R4, 0x00000000)  returns 0x00 (0000ms, 0754ms total)
T14C4 001:164 JLINK_WriteReg(R5, 0x00000000)  returns 0x00 (0000ms, 0754ms total)
T14C4 001:164 JLINK_WriteReg(R6, 0x00000000)  returns 0x00 (0000ms, 0754ms total)
T14C4 001:164 JLINK_WriteReg(R7, 0x00000000)  returns 0x00 (0000ms, 0754ms total)
T14C4 001:164 JLINK_WriteReg(R8, 0x00000000)  returns 0x00 (0000ms, 0754ms total)
T14C4 001:164 JLINK_WriteReg(R9, 0x20000160)  returns 0x00 (0000ms, 0754ms total)
T14C4 001:164 JLINK_WriteReg(R10, 0x00000000)  returns 0x00 (0000ms, 0754ms total)
T14C4 001:164 JLINK_WriteReg(R11, 0x00000000)  returns 0x00 (0000ms, 0754ms total)
T14C4 001:164 JLINK_WriteReg(R12, 0x00000000)  returns 0x00 (0000ms, 0754ms total)
T14C4 001:164 JLINK_WriteReg(R13 (SP), 0x20000800)  returns 0x00 (0000ms, 0754ms total)
T14C4 001:164 JLINK_WriteReg(R14, 0x20000001)  returns 0x00 (0000ms, 0754ms total)
T14C4 001:164 JLINK_WriteReg(R15 (PC), 0x2000006A)  returns 0x00 (0000ms, 0754ms total)
T14C4 001:164 JLINK_WriteReg(XPSR, 0x01000000)  returns 0x00 (0000ms, 0754ms total)
T14C4 001:164 JLINK_WriteReg(MSP, 0x20000800)  returns 0x00 (0000ms, 0754ms total)
T14C4 001:164 JLINK_WriteReg(PSP, 0x20000800)  returns 0x00 (0000ms, 0754ms total)
T14C4 001:164 JLINK_WriteReg(CFBP, 0x00000000)  returns 0x00 (0000ms, 0754ms total)
T14C4 001:164 JLINK_SetBPEx(Addr = 0x20000000, Type = 0xFFFFFFF2)  returns 0x0000000A (0000ms, 0754ms total)
T14C4 001:164 JLINK_Go() (0003ms, 0757ms total)
T14C4 001:167 JLINK_IsHalted() -- CPU_ReadMem(2 bytes @ 0x20000000)  returns TRUE (0005ms, 0762ms total)
T14C4 001:172 JLINK_ReadReg(R15 (PC))  returns 0x20000000 (0000ms, 0757ms total)
T14C4 001:172 JLINK_ClrBPEx(BPHandle = 0x0000000A)  returns 0x00 (0000ms, 0757ms total)
T14C4 001:173 JLINK_ReadReg(R0)  returns 0x00000000 (0000ms, 0757ms total)
T14C4 001:234 JLINK_WriteMem(0x20000000, 0x0164 Bytes, ...) -- Data:  00 BE 0A E0 0D 78 2D 06 68 40 08 24 40 00 00 D3 ... -- CPU_WriteMem(356 bytes @ 0x20000000)  returns 0x164 (0002ms, 0759ms total)
T14C4 001:237 JLINK_WriteReg(R0, 0x08000000)  returns 0x00 (0000ms, 0760ms total)
T14C4 001:237 JLINK_WriteReg(R1, 0x007A1200)  returns 0x00 (0000ms, 0760ms total)
T14C4 001:237 JLINK_WriteReg(R2, 0x00000002)  returns 0x00 (0000ms, 0760ms total)
T14C4 001:237 JLINK_WriteReg(R3, 0x00000000)  returns 0x00 (0000ms, 0760ms total)
T14C4 001:237 JLINK_WriteReg(R4, 0x00000000)  returns 0x00 (0000ms, 0760ms total)
T14C4 001:237 JLINK_WriteReg(R5, 0x00000000)  returns 0x00 (0000ms, 0760ms total)
T14C4 001:237 JLINK_WriteReg(R6, 0x00000000)  returns 0x00 (0000ms, 0760ms total)
T14C4 001:237 JLINK_WriteReg(R7, 0x00000000)  returns 0x00 (0000ms, 0760ms total)
T14C4 001:237 JLINK_WriteReg(R8, 0x00000000)  returns 0x00 (0000ms, 0760ms total)
T14C4 001:237 JLINK_WriteReg(R9, 0x20000160)  returns 0x00 (0000ms, 0760ms total)
T14C4 001:237 JLINK_WriteReg(R10, 0x00000000)  returns 0x00 (0000ms, 0760ms total)
T14C4 001:237 JLINK_WriteReg(R11, 0x00000000)  returns 0x00 (0000ms, 0760ms total)
T14C4 001:237 JLINK_WriteReg(R12, 0x00000000)  returns 0x00 (0000ms, 0760ms total)
T14C4 001:237 JLINK_WriteReg(R13 (SP), 0x20000800)  returns 0x00 (0000ms, 0760ms total)
T14C4 001:237 JLINK_WriteReg(R14, 0x20000001)  returns 0x00 (0000ms, 0760ms total)
T14C4 001:237 JLINK_WriteReg(R15 (PC), 0x20000038)  returns 0x00 (0000ms, 0760ms total)
T14C4 001:237 JLINK_WriteReg(XPSR, 0x01000000)  returns 0x00 (0000ms, 0760ms total)
T14C4 001:237 JLINK_WriteReg(MSP, 0x20000800)  returns 0x00 (0000ms, 0760ms total)
T14C4 001:237 JLINK_WriteReg(PSP, 0x20000800)  returns 0x00 (0001ms, 0761ms total)
T14C4 001:238 JLINK_WriteReg(CFBP, 0x00000000)  returns 0x00 (0000ms, 0761ms total)
T14C4 001:238 JLINK_SetBPEx(Addr = 0x20000000, Type = 0xFFFFFFF2) -- CPU_ReadMem(2 bytes @ 0x20000000)  returns 0x0000000B (0001ms, 0762ms total)
T14C4 001:239 JLINK_Go() -- CPU_WriteMem(2 bytes @ 0x20000000) (0004ms, 0766ms total)
T14C4 001:243 JLINK_IsHalted() -- CPU_ReadMem(2 bytes @ 0x20000000)  returns TRUE (0006ms, 0772ms total)
T14C4 001:249 JLINK_ReadReg(R15 (PC))  returns 0x20000000 (0000ms, 0766ms total)
T14C4 001:249 JLINK_ClrBPEx(BPHandle = 0x0000000B)  returns 0x00 (0000ms, 0766ms total)
T14C4 001:249 JLINK_ReadReg(R0)  returns 0x00000000 (0000ms, 0766ms total)
T14C4 001:250 JLINK_WriteMem(0x20000164, 0x0400 Bytes, ...) -- Data:  A8 06 00 20 69 09 00 08 71 09 00 08 73 09 00 08 ... -- CPU_WriteMem(1024 bytes @ 0x20000164)  returns 0x400 (0006ms, 0772ms total)
T14C4 001:256 JLINK_WriteReg(R0, 0x08000000)  returns 0x00 (0000ms, 0772ms total)
T14C4 001:256 JLINK_WriteReg(R1, 0x00000400)  returns 0x00 (0000ms, 0772ms total)
T14C4 001:256 JLINK_WriteReg(R2, 0x20000164)  returns 0x00 (0000ms, 0772ms total)
T14C4 001:256 JLINK_WriteReg(R3, 0x00000000)  returns 0x00 (0000ms, 0772ms total)
T14C4 001:256 JLINK_WriteReg(R4, 0x00000000)  returns 0x00 (0000ms, 0772ms total)
T14C4 001:256 JLINK_WriteReg(R5, 0x00000000)  returns 0x00 (0000ms, 0772ms total)
T14C4 001:257 JLINK_WriteReg(R6, 0x00000000)  returns 0x00 (0000ms, 0773ms total)
T14C4 001:257 JLINK_WriteReg(R7, 0x00000000)  returns 0x00 (0000ms, 0773ms total)
T14C4 001:257 JLINK_WriteReg(R8, 0x00000000)  returns 0x00 (0000ms, 0773ms total)
T14C4 001:257 JLINK_WriteReg(R9, 0x20000160)  returns 0x00 (0000ms, 0773ms total)
T14C4 001:257 JLINK_WriteReg(R10, 0x00000000)  returns 0x00 (0000ms, 0773ms total)
T14C4 001:257 JLINK_WriteReg(R11, 0x00000000)  returns 0x00 (0000ms, 0773ms total)
T14C4 001:257 JLINK_WriteReg(R12, 0x00000000)  returns 0x00 (0000ms, 0773ms total)
T14C4 001:257 JLINK_WriteReg(R13 (SP), 0x20000800)  returns 0x00 (0000ms, 0773ms total)
T14C4 001:257 JLINK_WriteReg(R14, 0x20000001)  returns 0x00 (0000ms, 0773ms total)
T14C4 001:257 JLINK_WriteReg(R15 (PC), 0x200000F4)  returns 0x00 (0000ms, 0773ms total)
T14C4 001:257 JLINK_WriteReg(XPSR, 0x01000000)  returns 0x00 (0000ms, 0773ms total)
T14C4 001:257 JLINK_WriteReg(MSP, 0x20000800)  returns 0x00 (0000ms, 0773ms total)
T14C4 001:257 JLINK_WriteReg(PSP, 0x20000800)  returns 0x00 (0000ms, 0773ms total)
T14C4 001:257 JLINK_WriteReg(CFBP, 0x00000000)  returns 0x00 (0000ms, 0773ms total)
T14C4 001:257 JLINK_SetBPEx(Addr = 0x20000000, Type = 0xFFFFFFF2)  returns 0x0000000C (0000ms, 0773ms total)
T14C4 001:257 JLINK_Go() (0003ms, 0776ms total)
T14C4 001:260 JLINK_IsHalted()  returns FALSE (0001ms, 0777ms total)
T14C4 001:306 JLINK_IsHalted() -- CPU_ReadMem(2 bytes @ 0x20000000)  returns TRUE (0006ms, 0782ms total)
T14C4 001:312 JLINK_ReadReg(R15 (PC))  returns 0x20000000 (0000ms, 0776ms total)
T14C4 001:312 JLINK_ClrBPEx(BPHandle = 0x0000000C)  returns 0x00 (0000ms, 0776ms total)
T14C4 001:312 JLINK_ReadReg(R0)  returns 0x00000000 (0000ms, 0776ms total)
T14C4 001:313 JLINK_WriteMem(0x20000164, 0x0400 Bytes, ...) -- Data:  10 B5 00 21 00 20 00 22 21 4B 5B 68 03 F0 0C 01 ... -- CPU_WriteMem(1024 bytes @ 0x20000164)  returns 0x400 (0006ms, 0782ms total)
T14C4 001:319 JLINK_WriteReg(R0, 0x08000400)  returns 0x00 (0000ms, 0782ms total)
T14C4 001:319 JLINK_WriteReg(R1, 0x00000400)  returns 0x00 (0000ms, 0782ms total)
T14C4 001:319 JLINK_WriteReg(R2, 0x20000164)  returns 0x00 (0000ms, 0782ms total)
T14C4 001:319 JLINK_WriteReg(R3, 0x00000000)  returns 0x00 (0000ms, 0782ms total)
T14C4 001:319 JLINK_WriteReg(R4, 0x00000000)  returns 0x00 (0000ms, 0782ms total)
T14C4 001:319 JLINK_WriteReg(R5, 0x00000000)  returns 0x00 (0000ms, 0782ms total)
T14C4 001:319 JLINK_WriteReg(R6, 0x00000000)  returns 0x00 (0000ms, 0782ms total)
T14C4 001:319 JLINK_WriteReg(R7, 0x00000000)  returns 0x00 (0000ms, 0782ms total)
T14C4 001:319 JLINK_WriteReg(R8, 0x00000000)  returns 0x00 (0000ms, 0782ms total)
T14C4 001:319 JLINK_WriteReg(R9, 0x20000160)  returns 0x00 (0001ms, 0783ms total)
T14C4 001:320 JLINK_WriteReg(R10, 0x00000000)  returns 0x00 (0000ms, 0783ms total)
T14C4 001:320 JLINK_WriteReg(R11, 0x00000000)  returns 0x00 (0000ms, 0783ms total)
T14C4 001:320 JLINK_WriteReg(R12, 0x00000000)  returns 0x00 (0000ms, 0783ms total)
T14C4 001:320 JLINK_WriteReg(R13 (SP), 0x20000800)  returns 0x00 (0000ms, 0783ms total)
T14C4 001:320 JLINK_WriteReg(R14, 0x20000001)  returns 0x00 (0000ms, 0783ms total)
T14C4 001:320 JLINK_WriteReg(R15 (PC), 0x200000F4)  returns 0x00 (0000ms, 0783ms total)
T14C4 001:320 JLINK_WriteReg(XPSR, 0x01000000)  returns 0x00 (0000ms, 0783ms total)
T14C4 001:320 JLINK_WriteReg(MSP, 0x20000800)  returns 0x00 (0000ms, 0783ms total)
T14C4 001:320 JLINK_WriteReg(PSP, 0x20000800)  returns 0x00 (0000ms, 0783ms total)
T14C4 001:320 JLINK_WriteReg(CFBP, 0x00000000)  returns 0x00 (0000ms, 0783ms total)
T14C4 001:320 JLINK_SetBPEx(Addr = 0x20000000, Type = 0xFFFFFFF2)  returns 0x0000000D (0000ms, 0783ms total)
T14C4 001:320 JLINK_Go() (0002ms, 0785ms total)
T14C4 001:322 JLINK_IsHalted()  returns FALSE (0001ms, 0786ms total)
T14C4 001:338 JLINK_IsHalted()  returns FALSE (0001ms, 0786ms total)
T14C4 001:340 JLINK_IsHalted()  returns FALSE (0001ms, 0786ms total)
T14C4 001:342 JLINK_IsHalted()  returns FALSE (0001ms, 0786ms total)
T14C4 001:344 JLINK_IsHalted()  returns FALSE (0001ms, 0786ms total)
T14C4 001:346 JLINK_IsHalted()  returns FALSE (0001ms, 0786ms total)
T14C4 001:348 JLINK_IsHalted()  returns FALSE (0001ms, 0786ms total)
T14C4 001:350 JLINK_IsHalted()  returns FALSE (0001ms, 0786ms total)
T14C4 001:352 JLINK_IsHalted()  returns FALSE (0001ms, 0786ms total)
T14C4 001:354 JLINK_IsHalted() -- CPU_ReadMem(2 bytes @ 0x20000000)  returns TRUE (0006ms, 0791ms total)
T14C4 001:360 JLINK_ReadReg(R15 (PC))  returns 0x20000000 (0000ms, 0785ms total)
T14C4 001:360 JLINK_ClrBPEx(BPHandle = 0x0000000D)  returns 0x00 (0000ms, 0785ms total)
T14C4 001:360 JLINK_ReadReg(R0)  returns 0x00000000 (0000ms, 0785ms total)
T14C4 001:360 JLINK_WriteMem(0x20000164, 0x0400 Bytes, ...) -- Data:  FF F7 58 FE 0A 20 FF F7 58 FE A2 20 FF F7 55 FE ... -- CPU_WriteMem(1024 bytes @ 0x20000164)  returns 0x400 (0007ms, 0792ms total)
T14C4 001:367 JLINK_WriteReg(R0, 0x08000800)  returns 0x00 (0000ms, 0792ms total)
T14C4 001:367 JLINK_WriteReg(R1, 0x00000400)  returns 0x00 (0000ms, 0792ms total)
T14C4 001:367 JLINK_WriteReg(R2, 0x20000164)  returns 0x00 (0000ms, 0792ms total)
T14C4 001:367 JLINK_WriteReg(R3, 0x00000000)  returns 0x00 (0000ms, 0792ms total)
T14C4 001:367 JLINK_WriteReg(R4, 0x00000000)  returns 0x00 (0000ms, 0792ms total)
T14C4 001:367 JLINK_WriteReg(R5, 0x00000000)  returns 0x00 (0000ms, 0792ms total)
T14C4 001:367 JLINK_WriteReg(R6, 0x00000000)  returns 0x00 (0000ms, 0792ms total)
T14C4 001:367 JLINK_WriteReg(R7, 0x00000000)  returns 0x00 (0000ms, 0792ms total)
T14C4 001:367 JLINK_WriteReg(R8, 0x00000000)  returns 0x00 (0000ms, 0792ms total)
T14C4 001:367 JLINK_WriteReg(R9, 0x20000160)  returns 0x00 (0000ms, 0792ms total)
T14C4 001:367 JLINK_WriteReg(R10, 0x00000000)  returns 0x00 (0000ms, 0792ms total)
T14C4 001:367 JLINK_WriteReg(R11, 0x00000000)  returns 0x00 (0000ms, 0792ms total)
T14C4 001:367 JLINK_WriteReg(R12, 0x00000000)  returns 0x00 (0000ms, 0792ms total)
T14C4 001:367 JLINK_WriteReg(R13 (SP), 0x20000800)  returns 0x00 (0000ms, 0792ms total)
T14C4 001:367 JLINK_WriteReg(R14, 0x20000001)  returns 0x00 (0000ms, 0792ms total)
T14C4 001:367 JLINK_WriteReg(R15 (PC), 0x200000F4)  returns 0x00 (0000ms, 0792ms total)
T14C4 001:367 JLINK_WriteReg(XPSR, 0x01000000)  returns 0x00 (0000ms, 0792ms total)
T14C4 001:367 JLINK_WriteReg(MSP, 0x20000800)  returns 0x00 (0000ms, 0792ms total)
T14C4 001:367 JLINK_WriteReg(PSP, 0x20000800)  returns 0x00 (0000ms, 0792ms total)
T14C4 001:367 JLINK_WriteReg(CFBP, 0x00000000)  returns 0x00 (0000ms, 0792ms total)
T14C4 001:367 JLINK_SetBPEx(Addr = 0x20000000, Type = 0xFFFFFFF2)  returns 0x0000000E (0000ms, 0792ms total)
T14C4 001:367 JLINK_Go() (0003ms, 0795ms total)
T14C4 001:370 JLINK_IsHalted()  returns FALSE (0001ms, 0796ms total)
T14C4 001:402 JLINK_IsHalted() -- CPU_ReadMem(2 bytes @ 0x20000000)  returns TRUE (0006ms, 0801ms total)
T14C4 001:408 JLINK_ReadReg(R15 (PC))  returns 0x20000000 (0000ms, 0795ms total)
T14C4 001:408 JLINK_ClrBPEx(BPHandle = 0x0000000E)  returns 0x00 (0000ms, 0795ms total)
T14C4 001:408 JLINK_ReadReg(R0)  returns 0x00000000 (0000ms, 0795ms total)
T14C4 001:408 JLINK_WriteMem(0x20000164, 0x0400 Bytes, ...) -- Data:  00 C0 0C EA 03 06 9E 42 21 D1 83 00 4F F0 0F 0C ... -- CPU_WriteMem(1024 bytes @ 0x20000164)  returns 0x400 (0007ms, 0802ms total)
T14C4 001:415 JLINK_WriteReg(R0, 0x08000C00)  returns 0x00 (0000ms, 0802ms total)
T14C4 001:415 JLINK_WriteReg(R1, 0x00000400)  returns 0x00 (0000ms, 0802ms total)
T14C4 001:415 JLINK_WriteReg(R2, 0x20000164)  returns 0x00 (0000ms, 0802ms total)
T14C4 001:415 JLINK_WriteReg(R3, 0x00000000)  returns 0x00 (0000ms, 0802ms total)
T14C4 001:415 JLINK_WriteReg(R4, 0x00000000)  returns 0x00 (0000ms, 0802ms total)
T14C4 001:415 JLINK_WriteReg(R5, 0x00000000)  returns 0x00 (0000ms, 0802ms total)
T14C4 001:415 JLINK_WriteReg(R6, 0x00000000)  returns 0x00 (0000ms, 0802ms total)
T14C4 001:415 JLINK_WriteReg(R7, 0x00000000)  returns 0x00 (0000ms, 0802ms total)
T14C4 001:415 JLINK_WriteReg(R8, 0x00000000)  returns 0x00 (0000ms, 0802ms total)
T14C4 001:415 JLINK_WriteReg(R9, 0x20000160)  returns 0x00 (0000ms, 0802ms total)
T14C4 001:415 JLINK_WriteReg(R10, 0x00000000)  returns 0x00 (0000ms, 0802ms total)
T14C4 001:415 JLINK_WriteReg(R11, 0x00000000)  returns 0x00 (0000ms, 0802ms total)
T14C4 001:415 JLINK_WriteReg(R12, 0x00000000)  returns 0x00 (0000ms, 0802ms total)
T14C4 001:415 JLINK_WriteReg(R13 (SP), 0x20000800)  returns 0x00 (0000ms, 0802ms total)
T14C4 001:415 JLINK_WriteReg(R14, 0x20000001)  returns 0x00 (0000ms, 0802ms total)
T14C4 001:415 JLINK_WriteReg(R15 (PC), 0x200000F4)  returns 0x00 (0000ms, 0802ms total)
T14C4 001:415 JLINK_WriteReg(XPSR, 0x01000000)  returns 0x00 (0000ms, 0802ms total)
T14C4 001:415 JLINK_WriteReg(MSP, 0x20000800)  returns 0x00 (0000ms, 0802ms total)
T14C4 001:415 JLINK_WriteReg(PSP, 0x20000800)  returns 0x00 (0000ms, 0802ms total)
T14C4 001:415 JLINK_WriteReg(CFBP, 0x00000000)  returns 0x00 (0000ms, 0802ms total)
T14C4 001:415 JLINK_SetBPEx(Addr = 0x20000000, Type = 0xFFFFFFF2)  returns 0x0000000F (0000ms, 0802ms total)
T14C4 001:415 JLINK_Go() (0003ms, 0805ms total)
T14C4 001:418 JLINK_IsHalted()  returns FALSE (0001ms, 0806ms total)
T14C4 001:420 JLINK_IsHalted()  returns FALSE (0001ms, 0806ms total)
T14C4 001:422 JLINK_IsHalted()  returns FALSE (0001ms, 0806ms total)
T14C4 001:424 JLINK_IsHalted()  returns FALSE (0001ms, 0806ms total)
T14C4 001:434 JLINK_IsHalted()  returns FALSE (0001ms, 0806ms total)
T14C4 001:436 JLINK_IsHalted()  returns FALSE (0001ms, 0806ms total)
T14C4 001:438 JLINK_IsHalted()  returns FALSE (0001ms, 0806ms total)
T14C4 001:440 JLINK_IsHalted()  returns FALSE (0001ms, 0806ms total)
T14C4 001:442 JLINK_IsHalted()  returns FALSE (0001ms, 0806ms total)
T14C4 001:447 JLINK_IsHalted()  returns FALSE (0001ms, 0806ms total)
T14C4 001:449 JLINK_IsHalted() -- CPU_ReadMem(2 bytes @ 0x20000000)  returns TRUE (0006ms, 0811ms total)
T14C4 001:455 JLINK_ReadReg(R15 (PC))  returns 0x20000000 (0000ms, 0805ms total)
T14C4 001:455 JLINK_ClrBPEx(BPHandle = 0x0000000F)  returns 0x00 (0000ms, 0805ms total)
T14C4 001:455 JLINK_ReadReg(R0)  returns 0x00000000 (0000ms, 0805ms total)
T14C4 001:455 JLINK_WriteMem(0x20000164, 0x0400 Bytes, ...) -- Data:  5C 4D 05 60 22 E0 5B 4D 05 60 1F E0 54 4D 6D 68 ... -- CPU_WriteMem(1024 bytes @ 0x20000164)  returns 0x400 (0007ms, 0812ms total)
T14C4 001:462 JLINK_WriteReg(R0, 0x08001000)  returns 0x00 (0000ms, 0812ms total)
T14C4 001:462 JLINK_WriteReg(R1, 0x00000400)  returns 0x00 (0000ms, 0812ms total)
T14C4 001:462 JLINK_WriteReg(R2, 0x20000164)  returns 0x00 (0000ms, 0812ms total)
T14C4 001:462 JLINK_WriteReg(R3, 0x00000000)  returns 0x00 (0000ms, 0812ms total)
T14C4 001:462 JLINK_WriteReg(R4, 0x00000000)  returns 0x00 (0000ms, 0812ms total)
T14C4 001:462 JLINK_WriteReg(R5, 0x00000000)  returns 0x00 (0000ms, 0812ms total)
T14C4 001:462 JLINK_WriteReg(R6, 0x00000000)  returns 0x00 (0000ms, 0812ms total)
T14C4 001:462 JLINK_WriteReg(R7, 0x00000000)  returns 0x00 (0000ms, 0812ms total)
T14C4 001:462 JLINK_WriteReg(R8, 0x00000000)  returns 0x00 (0000ms, 0812ms total)
T14C4 001:462 JLINK_WriteReg(R9, 0x20000160)  returns 0x00 (0000ms, 0812ms total)
T14C4 001:462 JLINK_WriteReg(R10, 0x00000000)  returns 0x00 (0000ms, 0812ms total)
T14C4 001:462 JLINK_WriteReg(R11, 0x00000000)  returns 0x00 (0000ms, 0812ms total)
T14C4 001:462 JLINK_WriteReg(R12, 0x00000000)  returns 0x00 (0000ms, 0812ms total)
T14C4 001:462 JLINK_WriteReg(R13 (SP), 0x20000800)  returns 0x00 (0000ms, 0812ms total)
T14C4 001:462 JLINK_WriteReg(R14, 0x20000001)  returns 0x00 (0000ms, 0812ms total)
T14C4 001:462 JLINK_WriteReg(R15 (PC), 0x200000F4)  returns 0x00 (0000ms, 0812ms total)
T14C4 001:462 JLINK_WriteReg(XPSR, 0x01000000)  returns 0x00 (0000ms, 0812ms total)
T14C4 001:462 JLINK_WriteReg(MSP, 0x20000800)  returns 0x00 (0000ms, 0812ms total)
T14C4 001:462 JLINK_WriteReg(PSP, 0x20000800)  returns 0x00 (0000ms, 0812ms total)
T14C4 001:462 JLINK_WriteReg(CFBP, 0x00000000)  returns 0x00 (0000ms, 0812ms total)
T14C4 001:462 JLINK_SetBPEx(Addr = 0x20000000, Type = 0xFFFFFFF2)  returns 0x00000010 (0000ms, 0812ms total)
T14C4 001:462 JLINK_Go() (0003ms, 0815ms total)
T14C4 001:465 JLINK_IsHalted()  returns FALSE (0001ms, 0816ms total)
T14C4 001:467 JLINK_IsHalted()  returns FALSE (0001ms, 0816ms total)
T14C4 001:469 JLINK_IsHalted()  returns FALSE (0001ms, 0816ms total)
T14C4 001:471 JLINK_IsHalted()  returns FALSE (0001ms, 0816ms total)
T14C4 001:473 JLINK_IsHalted()  returns FALSE (0001ms, 0816ms total)
T14C4 001:475 JLINK_IsHalted()  returns FALSE (0001ms, 0816ms total)
T14C4 001:484 JLINK_IsHalted()  returns FALSE (0001ms, 0816ms total)
T14C4 001:486 JLINK_IsHalted()  returns FALSE (0001ms, 0816ms total)
T14C4 001:488 JLINK_IsHalted()  returns FALSE (0002ms, 0817ms total)
T14C4 001:498 JLINK_IsHalted() -- CPU_ReadMem(2 bytes @ 0x20000000)  returns TRUE (0006ms, 0821ms total)
T14C4 001:504 JLINK_ReadReg(R15 (PC))  returns 0x20000000 (0000ms, 0815ms total)
T14C4 001:504 JLINK_ClrBPEx(BPHandle = 0x00000010)  returns 0x00 (0000ms, 0815ms total)
T14C4 001:504 JLINK_ReadReg(R0)  returns 0x00000000 (0000ms, 0815ms total)
T14C4 001:505 JLINK_WriteMem(0x20000164, 0x0400 Bytes, ...) -- Data:  20 42 C2 F8 B0 10 70 47 00 21 01 60 02 21 41 60 ... -- CPU_WriteMem(1024 bytes @ 0x20000164)  returns 0x400 (0006ms, 0821ms total)
T14C4 001:511 JLINK_WriteReg(R0, 0x08001400)  returns 0x00 (0000ms, 0821ms total)
T14C4 001:511 JLINK_WriteReg(R1, 0x00000400)  returns 0x00 (0000ms, 0821ms total)
T14C4 001:511 JLINK_WriteReg(R2, 0x20000164)  returns 0x00 (0000ms, 0821ms total)
T14C4 001:511 JLINK_WriteReg(R3, 0x00000000)  returns 0x00 (0000ms, 0821ms total)
T14C4 001:511 JLINK_WriteReg(R4, 0x00000000)  returns 0x00 (0000ms, 0821ms total)
T14C4 001:511 JLINK_WriteReg(R5, 0x00000000)  returns 0x00 (0000ms, 0821ms total)
T14C4 001:511 JLINK_WriteReg(R6, 0x00000000)  returns 0x00 (0000ms, 0821ms total)
T14C4 001:511 JLINK_WriteReg(R7, 0x00000000)  returns 0x00 (0000ms, 0821ms total)
T14C4 001:511 JLINK_WriteReg(R8, 0x00000000)  returns 0x00 (0000ms, 0821ms total)
T14C4 001:511 JLINK_WriteReg(R9, 0x20000160)  returns 0x00 (0000ms, 0821ms total)
T14C4 001:511 JLINK_WriteReg(R10, 0x00000000)  returns 0x00 (0000ms, 0821ms total)
T14C4 001:511 JLINK_WriteReg(R11, 0x00000000)  returns 0x00 (0000ms, 0821ms total)
T14C4 001:511 JLINK_WriteReg(R12, 0x00000000)  returns 0x00 (0000ms, 0821ms total)
T14C4 001:511 JLINK_WriteReg(R13 (SP), 0x20000800)  returns 0x00 (0000ms, 0821ms total)
T14C4 001:511 JLINK_WriteReg(R14, 0x20000001)  returns 0x00 (0000ms, 0821ms total)
T14C4 001:511 JLINK_WriteReg(R15 (PC), 0x200000F4)  returns 0x00 (0000ms, 0821ms total)
T14C4 001:511 JLINK_WriteReg(XPSR, 0x01000000)  returns 0x00 (0001ms, 0822ms total)
T14C4 001:512 JLINK_WriteReg(MSP, 0x20000800)  returns 0x00 (0000ms, 0822ms total)
T14C4 001:512 JLINK_WriteReg(PSP, 0x20000800)  returns 0x00 (0000ms, 0822ms total)
T14C4 001:512 JLINK_WriteReg(CFBP, 0x00000000)  returns 0x00 (0000ms, 0822ms total)
T14C4 001:512 JLINK_SetBPEx(Addr = 0x20000000, Type = 0xFFFFFFF2)  returns 0x00000011 (0000ms, 0822ms total)
T14C4 001:512 JLINK_Go() (0002ms, 0824ms total)
T14C4 001:514 JLINK_IsHalted()  returns FALSE (0001ms, 0825ms total)
T14C4 001:519 JLINK_IsHalted()  returns FALSE (0001ms, 0825ms total)
T14C4 001:521 JLINK_IsHalted()  returns FALSE (0001ms, 0825ms total)
T14C4 001:523 JLINK_IsHalted()  returns FALSE (0001ms, 0825ms total)
T14C4 001:525 JLINK_IsHalted()  returns FALSE (0002ms, 0826ms total)
T14C4 001:528 JLINK_IsHalted()  returns FALSE (0001ms, 0825ms total)
T14C4 001:530 JLINK_IsHalted()  returns FALSE (0001ms, 0825ms total)
T14C4 001:532 JLINK_IsHalted()  returns FALSE (0001ms, 0825ms total)
T14C4 001:534 JLINK_IsHalted()  returns FALSE (0001ms, 0825ms total)
T14C4 001:536 JLINK_IsHalted()  returns FALSE (0001ms, 0825ms total)
T14C4 001:548 JLINK_IsHalted() -- CPU_ReadMem(2 bytes @ 0x20000000)  returns TRUE (0006ms, 0830ms total)
T14C4 001:554 JLINK_ReadReg(R15 (PC))  returns 0x20000000 (0000ms, 0824ms total)
T14C4 001:554 JLINK_ClrBPEx(BPHandle = 0x00000011)  returns 0x00 (0000ms, 0824ms total)
T14C4 001:554 JLINK_ReadReg(R0)  returns 0x00000000 (0000ms, 0824ms total)
T14C4 001:554 JLINK_WriteMem(0x20000164, 0x0400 Bytes, ...) -- Data:  26 00 02 00 70 47 00 00 28 18 00 08 00 00 00 20 ... -- CPU_WriteMem(1024 bytes @ 0x20000164)  returns 0x400 (0007ms, 0831ms total)
T14C4 001:561 JLINK_WriteReg(R0, 0x08001800)  returns 0x00 (0000ms, 0831ms total)
T14C4 001:561 JLINK_WriteReg(R1, 0x0000005C)  returns 0x00 (0000ms, 0831ms total)
T14C4 001:561 JLINK_WriteReg(R2, 0x20000164)  returns 0x00 (0000ms, 0831ms total)
T14C4 001:561 JLINK_WriteReg(R3, 0x00000000)  returns 0x00 (0000ms, 0831ms total)
T14C4 001:561 JLINK_WriteReg(R4, 0x00000000)  returns 0x00 (0000ms, 0831ms total)
T14C4 001:561 JLINK_WriteReg(R5, 0x00000000)  returns 0x00 (0000ms, 0831ms total)
T14C4 001:561 JLINK_WriteReg(R6, 0x00000000)  returns 0x00 (0000ms, 0831ms total)
